# //  Questa Sim-64
# //  Version 10.7c win64 Aug 18 2018
# //
# //  Copyright 1991-2018 Mentor Graphics Corporation
# //  All Rights Reserved.
# //
# //  QuestaSim and its associated documentation contain trade
# //  secrets and commercial or financial information that are the property of
# //  Mentor Graphics Corporation and are privileged, confidential,
# //  and exempt from disclosure under the Freedom of Information Act,
# //  5 U.S.C. Section 552. Furthermore, this information
# //  is prohibited from disclosure under the Trade Secrets Act,
# //  18 U.S.C. Section 1905.
# //
# vsim -voptargs="+acc" apb_tb_top "+B2B" 
# Start time: 11:42:52 on Nov 27,2024
# ** Note: (vsim-3812) Design is being optimized...
# ** Note: (vopt-143) Recognized 1 FSM in module "AMBA_APB(fast)".
# Loading sv_std.std
# Loading work.apb_inf(fast)
# Loading work.apb_pkg(fast)
# Loading work.apb_tb_top(fast)
# Loading work.apb_inf(fast)
# Loading work.AMBA_APB(fast)
do wave.do
run -all
# apb_genrator connected
# apb_driver connected
# ********************************************************
# GENERATE BLOCK | address : 196610  : 0
# PWRITE     : 1                
# PWDATA     : 0                
# PRDATA     : 0                
# PADDAR     : 0                
# EXP_RDATA  : 0                
# ********************************************************
# 
# 
# ********************************************************
# MONITOR BLOCK | address : 262146  : 65
# PWRITE     : 1                
# PWDATA     : 0                
# PRDATA     : 0                
# PADDAR     : 0                
# EXP_RDATA  : 0                
# ********************************************************
# 
# 
# ********************************************************
# GENERATE BLOCK | address : 458754  : 65
# PWRITE     : 0                
# PWDATA     : 0                
# PRDATA     : 0                
# PADDAR     : 0                
# EXP_RDATA  : 0                
# ********************************************************
# 
# 
# ********************************************************
# REF BLOCK | address : 262146  : 65
# PWRITE     : 1                
# PWDATA     : 0                
# PRDATA     : 0                
# PADDAR     : 0                
# EXP_RDATA  : 0                
# ********************************************************
# 
# 
# ** Info: -----sucess-----
# |act_data =    0 |exp_data =    0|   65|
#    Time: 65 ns  Scope: apb_pkg.apb_scoreboard.check_data File: ../ENV/apb_scoreboard.sv Line: 106
# 1 no. of times passed
# 0 no. of times failed
# ********************************************************
# GENERATE BLOCK | address : 524290  : 95
# PWRITE     : 1                
# PWDATA     : 1                
# PRDATA     : 0                
# PADDAR     : 1                
# EXP_RDATA  : 0                
# ********************************************************
# 
# 
# ********************************************************
# MONITOR BLOCK | address : 262146  : 105
# PWRITE     : 0                
# PWDATA     : 0                
# PRDATA     : 0                
# PADDAR     : 0                
# EXP_RDATA  : 0                
# ********************************************************
# 
# 
# ********************************************************
# REF BLOCK | address : 262146  : 105
# PWRITE     : 0                
# PWDATA     : 0                
# PRDATA     : 0                
# PADDAR     : 0                
# EXP_RDATA  : 0                
# ********************************************************
# 
# 
# ** Info: -----sucess-----
# |act_data =    0 |exp_data =    0|  105|
#    Time: 105 ns  Scope: apb_pkg.apb_scoreboard.check_data File: ../ENV/apb_scoreboard.sv Line: 106
# 2 no. of times passed
# 0 no. of times failed
# ********************************************************
# GENERATE BLOCK | address : 589826  : 125
# PWRITE     : 0                
# PWDATA     : 0                
# PRDATA     : 0                
# PADDAR     : 1                
# EXP_RDATA  : 0                
# ********************************************************
# 
# 
# ********************************************************
# MONITOR BLOCK | address : 262146  : 135
# PWRITE     : 1                
# PWDATA     : 1                
# PRDATA     : 0                
# PADDAR     : 1                
# EXP_RDATA  : 0                
# ********************************************************
# 
# 
# ********************************************************
# REF BLOCK | address : 262146  : 135
# PWRITE     : 1                
# PWDATA     : 1                
# PRDATA     : 0                
# PADDAR     : 1                
# EXP_RDATA  : 0                
# ********************************************************
# 
# 
# ** Info: -----sucess-----
# |act_data =    0 |exp_data =    0|  135|
#    Time: 135 ns  Scope: apb_pkg.apb_scoreboard.check_data File: ../ENV/apb_scoreboard.sv Line: 106
# 3 no. of times passed
# 0 no. of times failed
# ********************************************************
# GENERATE BLOCK | address : 655362  : 155
# PWRITE     : 1                
# PWDATA     : 2                
# PRDATA     : 0                
# PADDAR     : 2                
# EXP_RDATA  : 0                
# ********************************************************
# 
# 
# ********************************************************
# MONITOR BLOCK | address : 262146  : 165
# PWRITE     : 0                
# PWDATA     : 1                
# PRDATA     : 0                
# PADDAR     : 1                
# EXP_RDATA  : 0                
# ********************************************************
# 
# 
# ********************************************************
# REF BLOCK | address : 262146  : 165
# PWRITE     : 0                
# PWDATA     : 1                
# PRDATA     : 0                
# PADDAR     : 1                
# EXP_RDATA  : 1                
# ********************************************************
# 
# 
# ** Info: -----sucess-----
# |act_data =    0 |exp_data =    0|  165|
#    Time: 165 ns  Scope: apb_pkg.apb_scoreboard.check_data File: ../ENV/apb_scoreboard.sv Line: 106
# 4 no. of times passed
# 0 no. of times failed
# ********************************************************
# GENERATE BLOCK | address : 720898  : 185
# PWRITE     : 0                
# PWDATA     : 0                
# PRDATA     : 0                
# PADDAR     : 2                
# EXP_RDATA  : 0                
# ********************************************************
# 
# 
# ********************************************************
# MONITOR BLOCK | address : 262146  : 195
# PWRITE     : 1                
# PWDATA     : 2                
# PRDATA     : 0                
# PADDAR     : 2                
# EXP_RDATA  : 1                
# ********************************************************
# 
# 
# ********************************************************
# REF BLOCK | address : 262146  : 195
# PWRITE     : 1                
# PWDATA     : 2                
# PRDATA     : 0                
# PADDAR     : 2                
# EXP_RDATA  : 1                
# ********************************************************
# 
# 
# ** Info: -----sucess-----
# |act_data =    0 |exp_data =    0|  195|
#    Time: 195 ns  Scope: apb_pkg.apb_scoreboard.check_data File: ../ENV/apb_scoreboard.sv Line: 106
# 5 no. of times passed
# 0 no. of times failed
# ********************************************************
# GENERATE BLOCK | address : 786434  : 215
# PWRITE     : 1                
# PWDATA     : 3                
# PRDATA     : 0                
# PADDAR     : 3                
# EXP_RDATA  : 0                
# ********************************************************
# 
# 
# ********************************************************
# MONITOR BLOCK | address : 262146  : 225
# PWRITE     : 0                
# PWDATA     : 2                
# PRDATA     : 1                
# PADDAR     : 2                
# EXP_RDATA  : 1                
# ********************************************************
# 
# 
# ********************************************************
# REF BLOCK | address : 262146  : 225
# PWRITE     : 0                
# PWDATA     : 2                
# PRDATA     : 1                
# PADDAR     : 2                
# EXP_RDATA  : 2                
# ********************************************************
# 
# 
# ** Info: -----sucess-----
# |act_data =    1 |exp_data =    1|  225|
#    Time: 225 ns  Scope: apb_pkg.apb_scoreboard.check_data File: ../ENV/apb_scoreboard.sv Line: 106
# 6 no. of times passed
# 0 no. of times failed
# ********************************************************
# GENERATE BLOCK | address : 851970  : 245
# PWRITE     : 0                
# PWDATA     : 0                
# PRDATA     : 0                
# PADDAR     : 3                
# EXP_RDATA  : 0                
# ********************************************************
# 
# 
# ********************************************************
# MONITOR BLOCK | address : 262146  : 255
# PWRITE     : 1                
# PWDATA     : 3                
# PRDATA     : 1                
# PADDAR     : 3                
# EXP_RDATA  : 2                
# ********************************************************
# 
# 
# ********************************************************
# REF BLOCK | address : 262146  : 255
# PWRITE     : 1                
# PWDATA     : 3                
# PRDATA     : 1                
# PADDAR     : 3                
# EXP_RDATA  : 2                
# ********************************************************
# 
# 
# ** Info: -----sucess-----
# |act_data =    1 |exp_data =    1|  255|
#    Time: 255 ns  Scope: apb_pkg.apb_scoreboard.check_data File: ../ENV/apb_scoreboard.sv Line: 106
# 7 no. of times passed
# 0 no. of times failed
# ********************************************************
# GENERATE BLOCK | address : 917506  : 275
# PWRITE     : 1                
# PWDATA     : 4                
# PRDATA     : 0                
# PADDAR     : 4                
# EXP_RDATA  : 0                
# ********************************************************
# 
# 
# ********************************************************
# MONITOR BLOCK | address : 262146  : 285
# PWRITE     : 0                
# PWDATA     : 3                
# PRDATA     : 2                
# PADDAR     : 3                
# EXP_RDATA  : 2                
# ********************************************************
# 
# 
# ********************************************************
# REF BLOCK | address : 262146  : 285
# PWRITE     : 0                
# PWDATA     : 3                
# PRDATA     : 2                
# PADDAR     : 3                
# EXP_RDATA  : 3                
# ********************************************************
# 
# 
# ** Info: -----sucess-----
# |act_data =    2 |exp_data =    2|  285|
#    Time: 285 ns  Scope: apb_pkg.apb_scoreboard.check_data File: ../ENV/apb_scoreboard.sv Line: 106
# 8 no. of times passed
# 0 no. of times failed
# ********************************************************
# GENERATE BLOCK | address : 983042  : 305
# PWRITE     : 0                
# PWDATA     : 0                
# PRDATA     : 0                
# PADDAR     : 4                
# EXP_RDATA  : 0                
# ********************************************************
# 
# 
# ********************************************************
# MONITOR BLOCK | address : 262146  : 315
# PWRITE     : 1                
# PWDATA     : 4                
# PRDATA     : 2                
# PADDAR     : 4                
# EXP_RDATA  : 3                
# ********************************************************
# 
# 
# ********************************************************
# REF BLOCK | address : 262146  : 315
# PWRITE     : 1                
# PWDATA     : 4                
# PRDATA     : 2                
# PADDAR     : 4                
# EXP_RDATA  : 3                
# ********************************************************
# 
# 
# ** Info: -----sucess-----
# |act_data =    2 |exp_data =    2|  315|
#    Time: 315 ns  Scope: apb_pkg.apb_scoreboard.check_data File: ../ENV/apb_scoreboard.sv Line: 106
# 9 no. of times passed
# 0 no. of times failed
# ********************************************************
# GENERATE BLOCK | address : 1048578  : 335
# PWRITE     : 1                
# PWDATA     : 5                
# PRDATA     : 0                
# PADDAR     : 5                
# EXP_RDATA  : 0                
# ********************************************************
# 
# 
# ********************************************************
# MONITOR BLOCK | address : 262146  : 345
# PWRITE     : 0                
# PWDATA     : 4                
# PRDATA     : 3                
# PADDAR     : 4                
# EXP_RDATA  : 3                
# ********************************************************
# 
# 
# ********************************************************
# REF BLOCK | address : 262146  : 345
# PWRITE     : 0                
# PWDATA     : 4                
# PRDATA     : 3                
# PADDAR     : 4                
# EXP_RDATA  : 4                
# ********************************************************
# 
# 
# ** Info: -----sucess-----
# |act_data =    3 |exp_data =    3|  345|
#    Time: 345 ns  Scope: apb_pkg.apb_scoreboard.check_data File: ../ENV/apb_scoreboard.sv Line: 106
# 10 no. of times passed
# 0 no. of times failed
# ********************************************************
# GENERATE BLOCK | address : 1114114  : 365
# PWRITE     : 0                
# PWDATA     : 0                
# PRDATA     : 0                
# PADDAR     : 5                
# EXP_RDATA  : 0                
# ********************************************************
# 
# 
# ********************************************************
# MONITOR BLOCK | address : 262146  : 375
# PWRITE     : 1                
# PWDATA     : 5                
# PRDATA     : 3                
# PADDAR     : 5                
# EXP_RDATA  : 4                
# ********************************************************
# 
# 
# ********************************************************
# REF BLOCK | address : 262146  : 375
# PWRITE     : 1                
# PWDATA     : 5                
# PRDATA     : 3                
# PADDAR     : 5                
# EXP_RDATA  : 4                
# ********************************************************
# 
# 
# ** Info: -----sucess-----
# |act_data =    3 |exp_data =    3|  375|
#    Time: 375 ns  Scope: apb_pkg.apb_scoreboard.check_data File: ../ENV/apb_scoreboard.sv Line: 106
# 11 no. of times passed
# 0 no. of times failed
# ********************************************************
# GENERATE BLOCK | address : 1179650  : 395
# PWRITE     : 1                
# PWDATA     : 6                
# PRDATA     : 0                
# PADDAR     : 6                
# EXP_RDATA  : 0                
# ********************************************************
# 
# 
# ********************************************************
# MONITOR BLOCK | address : 262146  : 405
# PWRITE     : 0                
# PWDATA     : 5                
# PRDATA     : 4                
# PADDAR     : 5                
# EXP_RDATA  : 4                
# ********************************************************
# 
# 
# ********************************************************
# REF BLOCK | address : 262146  : 405
# PWRITE     : 0                
# PWDATA     : 5                
# PRDATA     : 4                
# PADDAR     : 5                
# EXP_RDATA  : 5                
# ********************************************************
# 
# 
# ** Info: -----sucess-----
# |act_data =    4 |exp_data =    4|  405|
#    Time: 405 ns  Scope: apb_pkg.apb_scoreboard.check_data File: ../ENV/apb_scoreboard.sv Line: 106
# 12 no. of times passed
# 0 no. of times failed
# ********************************************************
# GENERATE BLOCK | address : 1245186  : 425
# PWRITE     : 0                
# PWDATA     : 0                
# PRDATA     : 0                
# PADDAR     : 6                
# EXP_RDATA  : 0                
# ********************************************************
# 
# 
# ********************************************************
# MONITOR BLOCK | address : 262146  : 435
# PWRITE     : 1                
# PWDATA     : 6                
# PRDATA     : 4                
# PADDAR     : 6                
# EXP_RDATA  : 5                
# ********************************************************
# 
# 
# ********************************************************
# REF BLOCK | address : 262146  : 435
# PWRITE     : 1                
# PWDATA     : 6                
# PRDATA     : 4                
# PADDAR     : 6                
# EXP_RDATA  : 5                
# ********************************************************
# 
# 
# ** Info: -----sucess-----
# |act_data =    4 |exp_data =    4|  435|
#    Time: 435 ns  Scope: apb_pkg.apb_scoreboard.check_data File: ../ENV/apb_scoreboard.sv Line: 106
# 13 no. of times passed
# 0 no. of times failed
# ********************************************************
# GENERATE BLOCK | address : 1310722  : 455
# PWRITE     : 1                
# PWDATA     : 7                
# PRDATA     : 0                
# PADDAR     : 7                
# EXP_RDATA  : 0                
# ********************************************************
# 
# 
# ********************************************************
# MONITOR BLOCK | address : 262146  : 465
# PWRITE     : 0                
# PWDATA     : 6                
# PRDATA     : 5                
# PADDAR     : 6                
# EXP_RDATA  : 5                
# ********************************************************
# 
# 
# ********************************************************
# REF BLOCK | address : 262146  : 465
# PWRITE     : 0                
# PWDATA     : 6                
# PRDATA     : 5                
# PADDAR     : 6                
# EXP_RDATA  : 6                
# ********************************************************
# 
# 
# ** Info: -----sucess-----
# |act_data =    5 |exp_data =    5|  465|
#    Time: 465 ns  Scope: apb_pkg.apb_scoreboard.check_data File: ../ENV/apb_scoreboard.sv Line: 106
# 14 no. of times passed
# 0 no. of times failed
# ********************************************************
# GENERATE BLOCK | address : 1376258  : 485
# PWRITE     : 0                
# PWDATA     : 0                
# PRDATA     : 0                
# PADDAR     : 7                
# EXP_RDATA  : 0                
# ********************************************************
# 
# 
# ********************************************************
# MONITOR BLOCK | address : 262146  : 495
# PWRITE     : 1                
# PWDATA     : 7                
# PRDATA     : 5                
# PADDAR     : 7                
# EXP_RDATA  : 6                
# ********************************************************
# 
# 
# ********************************************************
# REF BLOCK | address : 262146  : 495
# PWRITE     : 1                
# PWDATA     : 7                
# PRDATA     : 5                
# PADDAR     : 7                
# EXP_RDATA  : 6                
# ********************************************************
# 
# 
# ** Info: -----sucess-----
# |act_data =    5 |exp_data =    5|  495|
#    Time: 495 ns  Scope: apb_pkg.apb_scoreboard.check_data File: ../ENV/apb_scoreboard.sv Line: 106
# 15 no. of times passed
# 0 no. of times failed
# ********************************************************
# GENERATE BLOCK | address : 1441794  : 515
# PWRITE     : 1                
# PWDATA     : 8                
# PRDATA     : 0                
# PADDAR     : 8                
# EXP_RDATA  : 0                
# ********************************************************
# 
# 
# ********************************************************
# MONITOR BLOCK | address : 262146  : 525
# PWRITE     : 0                
# PWDATA     : 7                
# PRDATA     : 6                
# PADDAR     : 7                
# EXP_RDATA  : 6                
# ********************************************************
# 
# 
# ********************************************************
# REF BLOCK | address : 262146  : 525
# PWRITE     : 0                
# PWDATA     : 7                
# PRDATA     : 6                
# PADDAR     : 7                
# EXP_RDATA  : 7                
# ********************************************************
# 
# 
# ** Info: -----sucess-----
# |act_data =    6 |exp_data =    6|  525|
#    Time: 525 ns  Scope: apb_pkg.apb_scoreboard.check_data File: ../ENV/apb_scoreboard.sv Line: 106
# 16 no. of times passed
# 0 no. of times failed
# ********************************************************
# GENERATE BLOCK | address : 1507330  : 545
# PWRITE     : 0                
# PWDATA     : 0                
# PRDATA     : 0                
# PADDAR     : 8                
# EXP_RDATA  : 0                
# ********************************************************
# 
# 
# ********************************************************
# MONITOR BLOCK | address : 262146  : 555
# PWRITE     : 1                
# PWDATA     : 8                
# PRDATA     : 6                
# PADDAR     : 8                
# EXP_RDATA  : 7                
# ********************************************************
# 
# 
# ********************************************************
# REF BLOCK | address : 262146  : 555
# PWRITE     : 1                
# PWDATA     : 8                
# PRDATA     : 6                
# PADDAR     : 8                
# EXP_RDATA  : 7                
# ********************************************************
# 
# 
# ** Info: -----sucess-----
# |act_data =    6 |exp_data =    6|  555|
#    Time: 555 ns  Scope: apb_pkg.apb_scoreboard.check_data File: ../ENV/apb_scoreboard.sv Line: 106
# 17 no. of times passed
# 0 no. of times failed
# ********************************************************
# GENERATE BLOCK | address : 1572866  : 575
# PWRITE     : 1                
# PWDATA     : 9                
# PRDATA     : 0                
# PADDAR     : 9                
# EXP_RDATA  : 0                
# ********************************************************
# 
# 
# ********************************************************
# MONITOR BLOCK | address : 262146  : 585
# PWRITE     : 0                
# PWDATA     : 8                
# PRDATA     : 7                
# PADDAR     : 8                
# EXP_RDATA  : 7                
# ********************************************************
# 
# 
# ********************************************************
# REF BLOCK | address : 262146  : 585
# PWRITE     : 0                
# PWDATA     : 8                
# PRDATA     : 7                
# PADDAR     : 8                
# EXP_RDATA  : 8                
# ********************************************************
# 
# 
# ** Info: -----sucess-----
# |act_data =    7 |exp_data =    7|  585|
#    Time: 585 ns  Scope: apb_pkg.apb_scoreboard.check_data File: ../ENV/apb_scoreboard.sv Line: 106
# 18 no. of times passed
# 0 no. of times failed
# ********************************************************
# GENERATE BLOCK | address : 1638402  : 605
# PWRITE     : 0                
# PWDATA     : 0                
# PRDATA     : 0                
# PADDAR     : 9                
# EXP_RDATA  : 0                
# ********************************************************
# 
# 
# ********************************************************
# MONITOR BLOCK | address : 262146  : 615
# PWRITE     : 1                
# PWDATA     : 9                
# PRDATA     : 7                
# PADDAR     : 9                
# EXP_RDATA  : 8                
# ********************************************************
# 
# 
# ********************************************************
# REF BLOCK | address : 262146  : 615
# PWRITE     : 1                
# PWDATA     : 9                
# PRDATA     : 7                
# PADDAR     : 9                
# EXP_RDATA  : 8                
# ********************************************************
# 
# 
# ** Info: -----sucess-----
# |act_data =    7 |exp_data =    7|  615|
#    Time: 615 ns  Scope: apb_pkg.apb_scoreboard.check_data File: ../ENV/apb_scoreboard.sv Line: 106
# 19 no. of times passed
# 0 no. of times failed
# ********************************************************
# GENERATE BLOCK | address : 1703938  : 635
# PWRITE     : 1                
# PWDATA     : 10                
# PRDATA     : 0                
# PADDAR     : 10                
# EXP_RDATA  : 0                
# ********************************************************
# 
# 
# ********************************************************
# MONITOR BLOCK | address : 262146  : 645
# PWRITE     : 0                
# PWDATA     : 9                
# PRDATA     : 8                
# PADDAR     : 9                
# EXP_RDATA  : 8                
# ********************************************************
# 
# 
# ********************************************************
# REF BLOCK | address : 262146  : 645
# PWRITE     : 0                
# PWDATA     : 9                
# PRDATA     : 8                
# PADDAR     : 9                
# EXP_RDATA  : 9                
# ********************************************************
# 
# 
# ** Info: -----sucess-----
# |act_data =    8 |exp_data =    8|  645|
#    Time: 645 ns  Scope: apb_pkg.apb_scoreboard.check_data File: ../ENV/apb_scoreboard.sv Line: 106
# 20 no. of times passed
# 0 no. of times failed
# ********************************************************
# GENERATE BLOCK | address : 1769474  : 665
# PWRITE     : 0                
# PWDATA     : 0                
# PRDATA     : 0                
# PADDAR     : 10                
# EXP_RDATA  : 0                
# ********************************************************
# 
# 
# ********************************************************
# MONITOR BLOCK | address : 262146  : 675
# PWRITE     : 1                
# PWDATA     : 10                
# PRDATA     : 8                
# PADDAR     : 10                
# EXP_RDATA  : 9                
# ********************************************************
# 
# 
# ********************************************************
# REF BLOCK | address : 262146  : 675
# PWRITE     : 1                
# PWDATA     : 10                
# PRDATA     : 8                
# PADDAR     : 10                
# EXP_RDATA  : 9                
# ********************************************************
# 
# 
# ** Info: -----sucess-----
# |act_data =    8 |exp_data =    8|  675|
#    Time: 675 ns  Scope: apb_pkg.apb_scoreboard.check_data File: ../ENV/apb_scoreboard.sv Line: 106
# 21 no. of times passed
# 0 no. of times failed
# ********************************************************
# GENERATE BLOCK | address : 1835010  : 695
# PWRITE     : 1                
# PWDATA     : 11                
# PRDATA     : 0                
# PADDAR     : 11                
# EXP_RDATA  : 0                
# ********************************************************
# 
# 
# ********************************************************
# MONITOR BLOCK | address : 262146  : 705
# PWRITE     : 0                
# PWDATA     : 10                
# PRDATA     : 9                
# PADDAR     : 10                
# EXP_RDATA  : 9                
# ********************************************************
# 
# 
# ********************************************************
# REF BLOCK | address : 262146  : 705
# PWRITE     : 0                
# PWDATA     : 10                
# PRDATA     : 9                
# PADDAR     : 10                
# EXP_RDATA  : 10                
# ********************************************************
# 
# 
# ** Info: -----sucess-----
# |act_data =    9 |exp_data =    9|  705|
#    Time: 705 ns  Scope: apb_pkg.apb_scoreboard.check_data File: ../ENV/apb_scoreboard.sv Line: 106
# 22 no. of times passed
# 0 no. of times failed
# ********************************************************
# GENERATE BLOCK | address : 1900546  : 725
# PWRITE     : 0                
# PWDATA     : 0                
# PRDATA     : 0                
# PADDAR     : 11                
# EXP_RDATA  : 0                
# ********************************************************
# 
# 
# ********************************************************
# MONITOR BLOCK | address : 262146  : 735
# PWRITE     : 1                
# PWDATA     : 11                
# PRDATA     : 9                
# PADDAR     : 11                
# EXP_RDATA  : 10                
# ********************************************************
# 
# 
# ********************************************************
# REF BLOCK | address : 262146  : 735
# PWRITE     : 1                
# PWDATA     : 11                
# PRDATA     : 9                
# PADDAR     : 11                
# EXP_RDATA  : 10                
# ********************************************************
# 
# 
# ** Info: -----sucess-----
# |act_data =    9 |exp_data =    9|  735|
#    Time: 735 ns  Scope: apb_pkg.apb_scoreboard.check_data File: ../ENV/apb_scoreboard.sv Line: 106
# 23 no. of times passed
# 0 no. of times failed
# ********************************************************
# GENERATE BLOCK | address : 1966082  : 755
# PWRITE     : 1                
# PWDATA     : 12                
# PRDATA     : 0                
# PADDAR     : 12                
# EXP_RDATA  : 0                
# ********************************************************
# 
# 
# ********************************************************
# MONITOR BLOCK | address : 262146  : 765
# PWRITE     : 0                
# PWDATA     : 11                
# PRDATA     : 10                
# PADDAR     : 11                
# EXP_RDATA  : 10                
# ********************************************************
# 
# 
# ********************************************************
# REF BLOCK | address : 262146  : 765
# PWRITE     : 0                
# PWDATA     : 11                
# PRDATA     : 10                
# PADDAR     : 11                
# EXP_RDATA  : 11                
# ********************************************************
# 
# 
# ** Info: -----sucess-----
# |act_data =   10 |exp_data =   10|  765|
#    Time: 765 ns  Scope: apb_pkg.apb_scoreboard.check_data File: ../ENV/apb_scoreboard.sv Line: 106
# 24 no. of times passed
# 0 no. of times failed
# ********************************************************
# GENERATE BLOCK | address : 2031618  : 785
# PWRITE     : 0                
# PWDATA     : 0                
# PRDATA     : 0                
# PADDAR     : 12                
# EXP_RDATA  : 0                
# ********************************************************
# 
# 
# ********************************************************
# MONITOR BLOCK | address : 262146  : 795
# PWRITE     : 1                
# PWDATA     : 12                
# PRDATA     : 10                
# PADDAR     : 12                
# EXP_RDATA  : 11                
# ********************************************************
# 
# 
# ********************************************************
# REF BLOCK | address : 262146  : 795
# PWRITE     : 1                
# PWDATA     : 12                
# PRDATA     : 10                
# PADDAR     : 12                
# EXP_RDATA  : 11                
# ********************************************************
# 
# 
# ** Info: -----sucess-----
# |act_data =   10 |exp_data =   10|  795|
#    Time: 795 ns  Scope: apb_pkg.apb_scoreboard.check_data File: ../ENV/apb_scoreboard.sv Line: 106
# 25 no. of times passed
# 0 no. of times failed
# ********************************************************
# MONITOR BLOCK | address : 262146  : 825
# PWRITE     : 0                
# PWDATA     : 12                
# PRDATA     : 11                
# PADDAR     : 12                
# EXP_RDATA  : 11                
# ********************************************************
# 
# 
# ********************************************************
# REF BLOCK | address : 262146  : 825
# PWRITE     : 0                
# PWDATA     : 12                
# PRDATA     : 11                
# PADDAR     : 12                
# EXP_RDATA  : 12                
# ********************************************************
# 
# 
# ** Info: -----sucess-----
# |act_data =   11 |exp_data =   11|  825|
#    Time: 825 ns  Scope: apb_pkg.apb_scoreboard.check_data File: ../ENV/apb_scoreboard.sv Line: 106
# 26 no. of times passed
# 0 no. of times failed
# ** Note: $finish    : ../TOP/apb_tb_top.sv(53)
#    Time: 835 ns  Iteration: 0  Instance: /apb_tb_top
# 1
# Break in Module apb_tb_top at ../TOP/apb_tb_top.sv line 53
make cmp
# make.EXE[1]: Entering directory `D:/system verilog/sv/APB/SIM'
# vlog ../RTL/amba_apb.sv ../TEST/apb_pkg.sv ../TOP/apb_tb_top.sv +incdir+../ENV +incdir+../TEST
# QuestaSim-64 vlog 10.7c Compiler 2018.08 Aug 18 2018
# Start time: 11:45:17 on Nov 27,2024
# vlog ../RTL/amba_apb.sv ../TEST/apb_pkg.sv ../TOP/apb_tb_top.sv "+incdir+../ENV" "+incdir+../TEST" 
# -- Compiling module AMBA_APB
# -- Compiling interface apb_inf
# -- Compiling package apb_pkg
# ** Warning: ** while parsing file included at ../TEST/apb_pkg.sv(11)
# ** at ../ENV/apb_defines.sv(6): (vlog-2263) Redefinition of macro: 'DEPTH' (previously defined near ../ENV/apb_inf.sv(7), old value '16 ', new value '16') .
# -- Compiling module apb_tb_top
# -- Importing package apb_pkg
# 
# Top level modules:
# 	apb_tb_top
# End time: 11:45:17 on Nov 27,2024, Elapsed time: 0:00:00
# Errors: 0, Warnings: 1
# make.EXE[1]: Leaving directory `D:/system verilog/sv/APB/SIM'
vsim -voptargs=+acc apb_tb_top -c -do "run -all; exit" +RD_ONLY
# End time: 11:45:49 on Nov 27,2024, Elapsed time: 0:02:57
# Errors: 0, Warnings: 0
# vsim -voptargs="+acc" apb_tb_top -c -do "run -all; exit" "+RD_ONLY" 
# Start time: 11:45:49 on Nov 27,2024
# ** Note: (vsim-8009) Loading existing optimized design _opt
# Loading sv_std.std
# Loading work.apb_inf(fast)
# Loading work.apb_pkg(fast)
# Loading work.apb_tb_top(fast)
# Loading work.apb_inf(fast)
# Loading work.AMBA_APB(fast)
# run -all
# apb_genrator connected
# apb_driver connected
# ********************************************************
# GENERATE BLOCK | address : 196610  : 0
# PWRITE     : 1                
# PWDATA     : 2                
# PRDATA     : 0                
# PADDAR     : 18                
# EXP_RDATA  : 0                
# ********************************************************
# 
# 
# ********************************************************
# MONITOR BLOCK | address : 262146  : 65
# PWRITE     : 1                
# PWDATA     : 2                
# PRDATA     : 0                
# PADDAR     : 2                
# EXP_RDATA  : 0                
# ********************************************************
# 
# 
# ********************************************************
# GENERATE BLOCK | address : 458754  : 65
# PWRITE     : 1                
# PWDATA     : 6                
# PRDATA     : 0                
# PADDAR     : 14                
# EXP_RDATA  : 0                
# ********************************************************
# 
# 
# ********************************************************
# REF BLOCK | address : 262146  : 65
# PWRITE     : 1                
# PWDATA     : 2                
# PRDATA     : 0                
# PADDAR     : 2                
# EXP_RDATA  : 0                
# ********************************************************
# 
# 
# ** Info: -----sucess-----
# |act_data =    0 |exp_data =    0|   65|
#    Time: 65 ns  Scope: apb_pkg.apb_scoreboard.check_data File: ../ENV/apb_scoreboard.sv Line: 106
# 1 no. of times passed
# 0 no. of times failed
# ********************************************************
# GENERATE BLOCK | address : 524290  : 95
# PWRITE     : 1                
# PWDATA     : 344                
# PRDATA     : 0                
# PADDAR     : 1                
# EXP_RDATA  : 0                
# ********************************************************
# 
# 
# ********************************************************
# MONITOR BLOCK | address : 262146  : 105
# PWRITE     : 1                
# PWDATA     : 6                
# PRDATA     : 0                
# PADDAR     : 14                
# EXP_RDATA  : 0                
# ********************************************************
# 
# 
# ********************************************************
# REF BLOCK | address : 262146  : 105
# PWRITE     : 1                
# PWDATA     : 6                
# PRDATA     : 0                
# PADDAR     : 14                
# EXP_RDATA  : 0                
# ********************************************************
# 
# 
# ** Info: -----sucess-----
# |act_data =    0 |exp_data =    0|  105|
#    Time: 105 ns  Scope: apb_pkg.apb_scoreboard.check_data File: ../ENV/apb_scoreboard.sv Line: 106
# 2 no. of times passed
# 0 no. of times failed
# ********************************************************
# GENERATE BLOCK | address : 589826  : 125
# PWRITE     : 1                
# PWDATA     : 59                
# PRDATA     : 0                
# PADDAR     : 4                
# EXP_RDATA  : 0                
# ********************************************************
# 
# 
# ********************************************************
# MONITOR BLOCK | address : 262146  : 135
# PWRITE     : 1                
# PWDATA     : 88                
# PRDATA     : 0                
# PADDAR     : 1                
# EXP_RDATA  : 0                
# ********************************************************
# 
# 
# ********************************************************
# REF BLOCK | address : 262146  : 135
# PWRITE     : 1                
# PWDATA     : 88                
# PRDATA     : 0                
# PADDAR     : 1                
# EXP_RDATA  : 0                
# ********************************************************
# 
# 
# ** Info: -----sucess-----
# |act_data =    0 |exp_data =    0|  135|
#    Time: 135 ns  Scope: apb_pkg.apb_scoreboard.check_data File: ../ENV/apb_scoreboard.sv Line: 106
# 3 no. of times passed
# 0 no. of times failed
# ********************************************************
# GENERATE BLOCK | address : 655362  : 155
# PWRITE     : 1                
# PWDATA     : 386                
# PRDATA     : 0                
# PADDAR     : 30                
# EXP_RDATA  : 0                
# ********************************************************
# 
# 
# ********************************************************
# MONITOR BLOCK | address : 262146  : 165
# PWRITE     : 1                
# PWDATA     : 59                
# PRDATA     : 0                
# PADDAR     : 4                
# EXP_RDATA  : 0                
# ********************************************************
# 
# 
# ********************************************************
# REF BLOCK | address : 262146  : 165
# PWRITE     : 1                
# PWDATA     : 59                
# PRDATA     : 0                
# PADDAR     : 4                
# EXP_RDATA  : 0                
# ********************************************************
# 
# 
# ** Info: -----sucess-----
# |act_data =    0 |exp_data =    0|  165|
#    Time: 165 ns  Scope: apb_pkg.apb_scoreboard.check_data File: ../ENV/apb_scoreboard.sv Line: 106
# 4 no. of times passed
# 0 no. of times failed
# ********************************************************
# GENERATE BLOCK | address : 720898  : 185
# PWRITE     : 1                
# PWDATA     : 112                
# PRDATA     : 0                
# PADDAR     : 22                
# EXP_RDATA  : 0                
# ********************************************************
# 
# 
# ********************************************************
# MONITOR BLOCK | address : 262146  : 195
# PWRITE     : 1                
# PWDATA     : 130                
# PRDATA     : 0                
# PADDAR     : 14                
# EXP_RDATA  : 0                
# ********************************************************
# 
# 
# ********************************************************
# REF BLOCK | address : 262146  : 195
# PWRITE     : 1                
# PWDATA     : 130                
# PRDATA     : 0                
# PADDAR     : 14                
# EXP_RDATA  : 0                
# ********************************************************
# 
# 
# ** Info: -----sucess-----
# |act_data =    0 |exp_data =    0|  195|
#    Time: 195 ns  Scope: apb_pkg.apb_scoreboard.check_data File: ../ENV/apb_scoreboard.sv Line: 106
# 5 no. of times passed
# 0 no. of times failed
# ********************************************************
# GENERATE BLOCK | address : 786434  : 215
# PWRITE     : 1                
# PWDATA     : 452                
# PRDATA     : 0                
# PADDAR     : 27                
# EXP_RDATA  : 0                
# ********************************************************
# 
# 
# ********************************************************
# MONITOR BLOCK | address : 262146  : 225
# PWRITE     : 1                
# PWDATA     : 112                
# PRDATA     : 0                
# PADDAR     : 6                
# EXP_RDATA  : 0                
# ********************************************************
# 
# 
# ********************************************************
# REF BLOCK | address : 262146  : 225
# PWRITE     : 1                
# PWDATA     : 112                
# PRDATA     : 0                
# PADDAR     : 6                
# EXP_RDATA  : 0                
# ********************************************************
# 
# 
# ** Info: -----sucess-----
# |act_data =    0 |exp_data =    0|  225|
#    Time: 225 ns  Scope: apb_pkg.apb_scoreboard.check_data File: ../ENV/apb_scoreboard.sv Line: 106
# 6 no. of times passed
# 0 no. of times failed
# ********************************************************
# GENERATE BLOCK | address : 851970  : 245
# PWRITE     : 1                
# PWDATA     : 254                
# PRDATA     : 0                
# PADDAR     : 24                
# EXP_RDATA  : 0                
# ********************************************************
# 
# 
# ********************************************************
# MONITOR BLOCK | address : 262146  : 255
# PWRITE     : 1                
# PWDATA     : 196                
# PRDATA     : 0                
# PADDAR     : 11                
# EXP_RDATA  : 0                
# ********************************************************
# 
# 
# ********************************************************
# REF BLOCK | address : 262146  : 255
# PWRITE     : 1                
# PWDATA     : 196                
# PRDATA     : 0                
# PADDAR     : 11                
# EXP_RDATA  : 0                
# ********************************************************
# 
# 
# ** Info: -----sucess-----
# |act_data =    0 |exp_data =    0|  255|
#    Time: 255 ns  Scope: apb_pkg.apb_scoreboard.check_data File: ../ENV/apb_scoreboard.sv Line: 106
# 7 no. of times passed
# 0 no. of times failed
# ********************************************************
# GENERATE BLOCK | address : 917506  : 275
# PWRITE     : 1                
# PWDATA     : 323                
# PRDATA     : 0                
# PADDAR     : 27                
# EXP_RDATA  : 0                
# ********************************************************
# 
# 
# ********************************************************
# MONITOR BLOCK | address : 262146  : 285
# PWRITE     : 1                
# PWDATA     : 254                
# PRDATA     : 0                
# PADDAR     : 8                
# EXP_RDATA  : 0                
# ********************************************************
# 
# 
# ********************************************************
# REF BLOCK | address : 262146  : 285
# PWRITE     : 1                
# PWDATA     : 254                
# PRDATA     : 0                
# PADDAR     : 8                
# EXP_RDATA  : 0                
# ********************************************************
# 
# 
# ** Info: -----sucess-----
# |act_data =    0 |exp_data =    0|  285|
#    Time: 285 ns  Scope: apb_pkg.apb_scoreboard.check_data File: ../ENV/apb_scoreboard.sv Line: 106
# 8 no. of times passed
# 0 no. of times failed
# ********************************************************
# GENERATE BLOCK | address : 983042  : 305
# PWRITE     : 1                
# PWDATA     : 88                
# PRDATA     : 0                
# PADDAR     : 18                
# EXP_RDATA  : 0                
# ********************************************************
# 
# 
# ********************************************************
# MONITOR BLOCK | address : 262146  : 315
# PWRITE     : 1                
# PWDATA     : 67                
# PRDATA     : 0                
# PADDAR     : 11                
# EXP_RDATA  : 0                
# ********************************************************
# 
# 
# ********************************************************
# REF BLOCK | address : 262146  : 315
# PWRITE     : 1                
# PWDATA     : 67                
# PRDATA     : 0                
# PADDAR     : 11                
# EXP_RDATA  : 0                
# ********************************************************
# 
# 
# ** Info: -----sucess-----
# |act_data =    0 |exp_data =    0|  315|
#    Time: 315 ns  Scope: apb_pkg.apb_scoreboard.check_data File: ../ENV/apb_scoreboard.sv Line: 106
# 9 no. of times passed
# 0 no. of times failed
# ********************************************************
# GENERATE BLOCK | address : 1048578  : 335
# PWRITE     : 1                
# PWDATA     : 274                
# PRDATA     : 0                
# PADDAR     : 23                
# EXP_RDATA  : 0                
# ********************************************************
# 
# 
# ********************************************************
# MONITOR BLOCK | address : 262146  : 345
# PWRITE     : 1                
# PWDATA     : 88                
# PRDATA     : 0                
# PADDAR     : 2                
# EXP_RDATA  : 0                
# ********************************************************
# 
# 
# ********************************************************
# REF BLOCK | address : 262146  : 345
# PWRITE     : 1                
# PWDATA     : 88                
# PRDATA     : 0                
# PADDAR     : 2                
# EXP_RDATA  : 0                
# ********************************************************
# 
# 
# ** Info: -----sucess-----
# |act_data =    0 |exp_data =    0|  345|
#    Time: 345 ns  Scope: apb_pkg.apb_scoreboard.check_data File: ../ENV/apb_scoreboard.sv Line: 106
# 10 no. of times passed
# 0 no. of times failed
# ********************************************************
# GENERATE BLOCK | address : 1114114  : 365
# PWRITE     : 1                
# PWDATA     : 482                
# PRDATA     : 0                
# PADDAR     : 2                
# EXP_RDATA  : 0                
# ********************************************************
# 
# 
# ********************************************************
# MONITOR BLOCK | address : 262146  : 375
# PWRITE     : 1                
# PWDATA     : 18                
# PRDATA     : 0                
# PADDAR     : 7                
# EXP_RDATA  : 0                
# ********************************************************
# 
# 
# ********************************************************
# REF BLOCK | address : 262146  : 375
# PWRITE     : 1                
# PWDATA     : 18                
# PRDATA     : 0                
# PADDAR     : 7                
# EXP_RDATA  : 0                
# ********************************************************
# 
# 
# ** Info: -----sucess-----
# |act_data =    0 |exp_data =    0|  375|
#    Time: 375 ns  Scope: apb_pkg.apb_scoreboard.check_data File: ../ENV/apb_scoreboard.sv Line: 106
# 11 no. of times passed
# 0 no. of times failed
# ********************************************************
# GENERATE BLOCK | address : 1179650  : 395
# PWRITE     : 1                
# PWDATA     : 380                
# PRDATA     : 0                
# PADDAR     : 2                
# EXP_RDATA  : 0                
# ********************************************************
# 
# 
# ********************************************************
# MONITOR BLOCK | address : 262146  : 405
# PWRITE     : 1                
# PWDATA     : 226                
# PRDATA     : 0                
# PADDAR     : 2                
# EXP_RDATA  : 0                
# ********************************************************
# 
# 
# ********************************************************
# REF BLOCK | address : 262146  : 405
# PWRITE     : 1                
# PWDATA     : 226                
# PRDATA     : 0                
# PADDAR     : 2                
# EXP_RDATA  : 0                
# ********************************************************
# 
# 
# ** Info: -----sucess-----
# |act_data =    0 |exp_data =    0|  405|
#    Time: 405 ns  Scope: apb_pkg.apb_scoreboard.check_data File: ../ENV/apb_scoreboard.sv Line: 106
# 12 no. of times passed
# 0 no. of times failed
# ********************************************************
# GENERATE BLOCK | address : 1245186  : 425
# PWRITE     : 1                
# PWDATA     : 143                
# PRDATA     : 0                
# PADDAR     : 31                
# EXP_RDATA  : 0                
# ********************************************************
# 
# 
# ********************************************************
# MONITOR BLOCK | address : 262146  : 435
# PWRITE     : 1                
# PWDATA     : 124                
# PRDATA     : 0                
# PADDAR     : 2                
# EXP_RDATA  : 0                
# ********************************************************
# 
# 
# ********************************************************
# REF BLOCK | address : 262146  : 435
# PWRITE     : 1                
# PWDATA     : 124                
# PRDATA     : 0                
# PADDAR     : 2                
# EXP_RDATA  : 0                
# ********************************************************
# 
# 
# ** Info: -----sucess-----
# |act_data =    0 |exp_data =    0|  435|
#    Time: 435 ns  Scope: apb_pkg.apb_scoreboard.check_data File: ../ENV/apb_scoreboard.sv Line: 106
# 13 no. of times passed
# 0 no. of times failed
# ********************************************************
# GENERATE BLOCK | address : 1310722  : 455
# PWRITE     : 1                
# PWDATA     : 142                
# PRDATA     : 0                
# PADDAR     : 3                
# EXP_RDATA  : 0                
# ********************************************************
# 
# 
# ********************************************************
# MONITOR BLOCK | address : 262146  : 465
# PWRITE     : 1                
# PWDATA     : 143                
# PRDATA     : 0                
# PADDAR     : 15                
# EXP_RDATA  : 0                
# ********************************************************
# 
# 
# ********************************************************
# REF BLOCK | address : 262146  : 465
# PWRITE     : 1                
# PWDATA     : 143                
# PRDATA     : 0                
# PADDAR     : 15                
# EXP_RDATA  : 0                
# ********************************************************
# 
# 
# ** Info: -----sucess-----
# |act_data =    0 |exp_data =    0|  465|
#    Time: 465 ns  Scope: apb_pkg.apb_scoreboard.check_data File: ../ENV/apb_scoreboard.sv Line: 106
# 14 no. of times passed
# 0 no. of times failed
# ********************************************************
# GENERATE BLOCK | address : 1376258  : 485
# PWRITE     : 0                
# PWDATA     : 0                
# PRDATA     : 0                
# PADDAR     : 9                
# EXP_RDATA  : 0                
# ********************************************************
# 
# 
# ********************************************************
# MONITOR BLOCK | address : 262146  : 495
# PWRITE     : 1                
# PWDATA     : 142                
# PRDATA     : 0                
# PADDAR     : 3                
# EXP_RDATA  : 0                
# ********************************************************
# 
# 
# ********************************************************
# REF BLOCK | address : 262146  : 495
# PWRITE     : 1                
# PWDATA     : 142                
# PRDATA     : 0                
# PADDAR     : 3                
# EXP_RDATA  : 0                
# ********************************************************
# 
# 
# ** Info: -----sucess-----
# |act_data =    0 |exp_data =    0|  495|
#    Time: 495 ns  Scope: apb_pkg.apb_scoreboard.check_data File: ../ENV/apb_scoreboard.sv Line: 106
# 15 no. of times passed
# 0 no. of times failed
# ********************************************************
# GENERATE BLOCK | address : 1441794  : 515
# PWRITE     : 0                
# PWDATA     : 0                
# PRDATA     : 0                
# PADDAR     : 29                
# EXP_RDATA  : 0                
# ********************************************************
# 
# 
# ********************************************************
# MONITOR BLOCK | address : 262146  : 525
# PWRITE     : 0                
# PWDATA     : 142                
# PRDATA     : 0                
# PADDAR     : 9                
# EXP_RDATA  : 0                
# ********************************************************
# 
# 
# ********************************************************
# REF BLOCK | address : 262146  : 525
# PWRITE     : 0                
# PWDATA     : 142                
# PRDATA     : 0                
# PADDAR     : 9                
# EXP_RDATA  : 0                
# ********************************************************
# 
# 
# ** Info: -----sucess-----
# |act_data =    0 |exp_data =    0|  525|
#    Time: 525 ns  Scope: apb_pkg.apb_scoreboard.check_data File: ../ENV/apb_scoreboard.sv Line: 106
# 16 no. of times passed
# 0 no. of times failed
# ********************************************************
# GENERATE BLOCK | address : 1507330  : 545
# PWRITE     : 0                
# PWDATA     : 0                
# PRDATA     : 0                
# PADDAR     : 5                
# EXP_RDATA  : 0                
# ********************************************************
# 
# 
# ********************************************************
# MONITOR BLOCK | address : 262146  : 555
# PWRITE     : 0                
# PWDATA     : 142                
# PRDATA     : 0                
# PADDAR     : 13                
# EXP_RDATA  : 0                
# ********************************************************
# 
# 
# ********************************************************
# REF BLOCK | address : 262146  : 555
# PWRITE     : 0                
# PWDATA     : 142                
# PRDATA     : 0                
# PADDAR     : 13                
# EXP_RDATA  : 0                
# ********************************************************
# 
# 
# ** Info: -----sucess-----
# |act_data =    0 |exp_data =    0|  555|
#    Time: 555 ns  Scope: apb_pkg.apb_scoreboard.check_data File: ../ENV/apb_scoreboard.sv Line: 106
# 17 no. of times passed
# 0 no. of times failed
# ********************************************************
# GENERATE BLOCK | address : 1572866  : 575
# PWRITE     : 0                
# PWDATA     : 0                
# PRDATA     : 0                
# PADDAR     : 16                
# EXP_RDATA  : 0                
# ********************************************************
# 
# 
# ********************************************************
# MONITOR BLOCK | address : 262146  : 585
# PWRITE     : 0                
# PWDATA     : 142                
# PRDATA     : 0                
# PADDAR     : 5                
# EXP_RDATA  : 0                
# ********************************************************
# 
# 
# ********************************************************
# REF BLOCK | address : 262146  : 585
# PWRITE     : 0                
# PWDATA     : 142                
# PRDATA     : 0                
# PADDAR     : 5                
# EXP_RDATA  : 0                
# ********************************************************
# 
# 
# ** Info: -----sucess-----
# |act_data =    0 |exp_data =    0|  585|
#    Time: 585 ns  Scope: apb_pkg.apb_scoreboard.check_data File: ../ENV/apb_scoreboard.sv Line: 106
# 18 no. of times passed
# 0 no. of times failed
# ********************************************************
# GENERATE BLOCK | address : 1638402  : 605
# PWRITE     : 0                
# PWDATA     : 0                
# PRDATA     : 0                
# PADDAR     : 2                
# EXP_RDATA  : 0                
# ********************************************************
# 
# 
# ********************************************************
# MONITOR BLOCK | address : 262146  : 615
# PWRITE     : 0                
# PWDATA     : 142                
# PRDATA     : 0                
# PADDAR     : 0                
# EXP_RDATA  : 0                
# ********************************************************
# 
# 
# ********************************************************
# REF BLOCK | address : 262146  : 615
# PWRITE     : 0                
# PWDATA     : 142                
# PRDATA     : 0                
# PADDAR     : 0                
# EXP_RDATA  : 0                
# ********************************************************
# 
# 
# ** Info: -----sucess-----
# |act_data =    0 |exp_data =    0|  615|
#    Time: 615 ns  Scope: apb_pkg.apb_scoreboard.check_data File: ../ENV/apb_scoreboard.sv Line: 106
# 19 no. of times passed
# 0 no. of times failed
# ********************************************************
# GENERATE BLOCK | address : 1703938  : 635
# PWRITE     : 0                
# PWDATA     : 0                
# PRDATA     : 0                
# PADDAR     : 5                
# EXP_RDATA  : 0                
# ********************************************************
# 
# 
# ********************************************************
# MONITOR BLOCK | address : 262146  : 645
# PWRITE     : 0                
# PWDATA     : 142                
# PRDATA     : 0                
# PADDAR     : 2                
# EXP_RDATA  : 0                
# ********************************************************
# 
# 
# ********************************************************
# REF BLOCK | address : 262146  : 645
# PWRITE     : 0                
# PWDATA     : 142                
# PRDATA     : 0                
# PADDAR     : 2                
# EXP_RDATA  : 124                
# ********************************************************
# 
# 
# ** Info: -----sucess-----
# |act_data =    0 |exp_data =    0|  645|
#    Time: 645 ns  Scope: apb_pkg.apb_scoreboard.check_data File: ../ENV/apb_scoreboard.sv Line: 106
# 20 no. of times passed
# 0 no. of times failed
# ********************************************************
# GENERATE BLOCK | address : 1769474  : 665
# PWRITE     : 0                
# PWDATA     : 0                
# PRDATA     : 0                
# PADDAR     : 18                
# EXP_RDATA  : 0                
# ********************************************************
# 
# 
# ********************************************************
# MONITOR BLOCK | address : 262146  : 675
# PWRITE     : 0                
# PWDATA     : 142                
# PRDATA     : 124                
# PADDAR     : 5                
# EXP_RDATA  : 124                
# ********************************************************
# 
# 
# ********************************************************
# REF BLOCK | address : 262146  : 675
# PWRITE     : 0                
# PWDATA     : 142                
# PRDATA     : 124                
# PADDAR     : 5                
# EXP_RDATA  : 0                
# ********************************************************
# 
# 
# ** Info: -----sucess-----
# |act_data =  124 |exp_data =  124|  675|
#    Time: 675 ns  Scope: apb_pkg.apb_scoreboard.check_data File: ../ENV/apb_scoreboard.sv Line: 106
# 21 no. of times passed
# 0 no. of times failed
# ********************************************************
# GENERATE BLOCK | address : 1835010  : 695
# PWRITE     : 0                
# PWDATA     : 0                
# PRDATA     : 0                
# PADDAR     : 2                
# EXP_RDATA  : 0                
# ********************************************************
# 
# 
# ********************************************************
# MONITOR BLOCK | address : 262146  : 705
# PWRITE     : 0                
# PWDATA     : 142                
# PRDATA     : 0                
# PADDAR     : 2                
# EXP_RDATA  : 0                
# ********************************************************
# 
# 
# ********************************************************
# REF BLOCK | address : 262146  : 705
# PWRITE     : 0                
# PWDATA     : 142                
# PRDATA     : 0                
# PADDAR     : 2                
# EXP_RDATA  : 124                
# ********************************************************
# 
# 
# ** Info: -----sucess-----
# |act_data =    0 |exp_data =    0|  705|
#    Time: 705 ns  Scope: apb_pkg.apb_scoreboard.check_data File: ../ENV/apb_scoreboard.sv Line: 106
# 22 no. of times passed
# 0 no. of times failed
# ********************************************************
# GENERATE BLOCK | address : 1900546  : 725
# PWRITE     : 0                
# PWDATA     : 0                
# PRDATA     : 0                
# PADDAR     : 5                
# EXP_RDATA  : 0                
# ********************************************************
# 
# 
# ********************************************************
# MONITOR BLOCK | address : 262146  : 735
# PWRITE     : 0                
# PWDATA     : 142                
# PRDATA     : 124                
# PADDAR     : 2                
# EXP_RDATA  : 124                
# ********************************************************
# 
# 
# ********************************************************
# REF BLOCK | address : 262146  : 735
# PWRITE     : 0                
# PWDATA     : 142                
# PRDATA     : 124                
# PADDAR     : 2                
# EXP_RDATA  : 124                
# ********************************************************
# 
# 
# ** Info: -----sucess-----
# |act_data =  124 |exp_data =  124|  735|
#    Time: 735 ns  Scope: apb_pkg.apb_scoreboard.check_data File: ../ENV/apb_scoreboard.sv Line: 106
# 23 no. of times passed
# 0 no. of times failed
# ********************************************************
# GENERATE BLOCK | address : 1966082  : 755
# PWRITE     : 0                
# PWDATA     : 0                
# PRDATA     : 0                
# PADDAR     : 15                
# EXP_RDATA  : 0                
# ********************************************************
# 
# 
# ********************************************************
# MONITOR BLOCK | address : 262146  : 765
# PWRITE     : 0                
# PWDATA     : 142                
# PRDATA     : 124                
# PADDAR     : 5                
# EXP_RDATA  : 124                
# ********************************************************
# 
# 
# ********************************************************
# REF BLOCK | address : 262146  : 765
# PWRITE     : 0                
# PWDATA     : 142                
# PRDATA     : 124                
# PADDAR     : 5                
# EXP_RDATA  : 0                
# ********************************************************
# 
# 
# ** Info: -----sucess-----
# |act_data =  124 |exp_data =  124|  765|
#    Time: 765 ns  Scope: apb_pkg.apb_scoreboard.check_data File: ../ENV/apb_scoreboard.sv Line: 106
# 24 no. of times passed
# 0 no. of times failed
# ********************************************************
# GENERATE BLOCK | address : 2031618  : 785
# PWRITE     : 0                
# PWDATA     : 0                
# PRDATA     : 0                
# PADDAR     : 25                
# EXP_RDATA  : 0                
# ********************************************************
# 
# 
# ********************************************************
# MONITOR BLOCK | address : 262146  : 795
# PWRITE     : 0                
# PWDATA     : 142                
# PRDATA     : 0                
# PADDAR     : 15                
# EXP_RDATA  : 0                
# ********************************************************
# 
# 
# ********************************************************
# REF BLOCK | address : 262146  : 795
# PWRITE     : 0                
# PWDATA     : 142                
# PRDATA     : 0                
# PADDAR     : 15                
# EXP_RDATA  : 143                
# ********************************************************
# 
# 
# ** Info: -----sucess-----
# |act_data =    0 |exp_data =    0|  795|
#    Time: 795 ns  Scope: apb_pkg.apb_scoreboard.check_data File: ../ENV/apb_scoreboard.sv Line: 106
# 25 no. of times passed
# 0 no. of times failed
# ********************************************************
# GENERATE BLOCK | address : 2097154  : 815
# PWRITE     : 0                
# PWDATA     : 0                
# PRDATA     : 0                
# PADDAR     : 31                
# EXP_RDATA  : 0                
# ********************************************************
# 
# 
# ********************************************************
# MONITOR BLOCK | address : 262146  : 825
# PWRITE     : 0                
# PWDATA     : 142                
# PRDATA     : 143                
# PADDAR     : 9                
# EXP_RDATA  : 143                
# ********************************************************
# 
# 
# ********************************************************
# REF BLOCK | address : 262146  : 825
# PWRITE     : 0                
# PWDATA     : 142                
# PRDATA     : 143                
# PADDAR     : 9                
# EXP_RDATA  : 0                
# ********************************************************
# 
# 
# ** Info: -----sucess-----
# |act_data =  143 |exp_data =  143|  825|
#    Time: 825 ns  Scope: apb_pkg.apb_scoreboard.check_data File: ../ENV/apb_scoreboard.sv Line: 106
# 26 no. of times passed
# 0 no. of times failed
# ********************************************************
# GENERATE BLOCK | address : 2162690  : 845
# PWRITE     : 0                
# PWDATA     : 0                
# PRDATA     : 0                
# PADDAR     : 23                
# EXP_RDATA  : 0                
# ********************************************************
# 
# 
# ********************************************************
# MONITOR BLOCK | address : 262146  : 855
# PWRITE     : 0                
# PWDATA     : 142                
# PRDATA     : 0                
# PADDAR     : 15                
# EXP_RDATA  : 0                
# ********************************************************
# 
# 
# ********************************************************
# REF BLOCK | address : 262146  : 855
# PWRITE     : 0                
# PWDATA     : 142                
# PRDATA     : 0                
# PADDAR     : 15                
# EXP_RDATA  : 143                
# ********************************************************
# 
# 
# ** Info: -----sucess-----
# |act_data =    0 |exp_data =    0|  855|
#    Time: 855 ns  Scope: apb_pkg.apb_scoreboard.check_data File: ../ENV/apb_scoreboard.sv Line: 106
# 27 no. of times passed
# 0 no. of times failed
# ********************************************************
# GENERATE BLOCK | address : 2228226  : 875
# PWRITE     : 0                
# PWDATA     : 0                
# PRDATA     : 0                
# PADDAR     : 16                
# EXP_RDATA  : 0                
# ********************************************************
# 
# 
# ********************************************************
# MONITOR BLOCK | address : 262146  : 885
# PWRITE     : 0                
# PWDATA     : 142                
# PRDATA     : 143                
# PADDAR     : 7                
# EXP_RDATA  : 143                
# ********************************************************
# 
# 
# ********************************************************
# REF BLOCK | address : 262146  : 885
# PWRITE     : 0                
# PWDATA     : 142                
# PRDATA     : 143                
# PADDAR     : 7                
# EXP_RDATA  : 18                
# ********************************************************
# 
# 
# ** Info: -----sucess-----
# |act_data =  143 |exp_data =  143|  885|
#    Time: 885 ns  Scope: apb_pkg.apb_scoreboard.check_data File: ../ENV/apb_scoreboard.sv Line: 106
# 28 no. of times passed
# 0 no. of times failed
# ********************************************************
# GENERATE BLOCK | address : 2293762  : 905
# PWRITE     : 0                
# PWDATA     : 0                
# PRDATA     : 0                
# PADDAR     : 20                
# EXP_RDATA  : 0                
# ********************************************************
# 
# 
# ********************************************************
# MONITOR BLOCK | address : 262146  : 915
# PWRITE     : 0                
# PWDATA     : 142                
# PRDATA     : 18                
# PADDAR     : 0                
# EXP_RDATA  : 18                
# ********************************************************
# 
# 
# ********************************************************
# REF BLOCK | address : 262146  : 915
# PWRITE     : 0                
# PWDATA     : 142                
# PRDATA     : 18                
# PADDAR     : 0                
# EXP_RDATA  : 0                
# ********************************************************
# 
# 
# ** Info: -----sucess-----
# |act_data =   18 |exp_data =   18|  915|
#    Time: 915 ns  Scope: apb_pkg.apb_scoreboard.check_data File: ../ENV/apb_scoreboard.sv Line: 106
# 29 no. of times passed
# 0 no. of times failed
# ********************************************************
# MONITOR BLOCK | address : 262146  : 945
# PWRITE     : 0                
# PWDATA     : 142                
# PRDATA     : 0                
# PADDAR     : 4                
# EXP_RDATA  : 0                
# ********************************************************
# 
# 
# ********************************************************
# REF BLOCK | address : 262146  : 945
# PWRITE     : 0                
# PWDATA     : 142                
# PRDATA     : 0                
# PADDAR     : 4                
# EXP_RDATA  : 59                
# ********************************************************
# 
# 
# ** Info: -----sucess-----
# |act_data =    0 |exp_data =    0|  945|
#    Time: 945 ns  Scope: apb_pkg.apb_scoreboard.check_data File: ../ENV/apb_scoreboard.sv Line: 106
# 30 no. of times passed
# 0 no. of times failed
# ** Note: $finish    : ../TOP/apb_tb_top.sv(53)
#    Time: 955 ns  Iteration: 0  Instance: /apb_tb_top
# 1
# Break in Module apb_tb_top at ../TOP/apb_tb_top.sv line 53
#  exit
do wave.do
run -all
restart
# ** Note: (vsim-8009) Loading existing optimized design _opt
# Loading work.apb_inf(fast)
# Loading work.apb_pkg(fast)
# Loading work.apb_tb_top(fast)
# Loading work.apb_inf(fast)
# Loading work.AMBA_APB(fast)
run -all
# apb_genrator connected
# apb_driver connected
# ********************************************************
# GENERATE BLOCK | address : 196611  : 0
# PWRITE     : 1                
# PWDATA     : 2                
# PRDATA     : 0                
# PADDAR     : 18                
# EXP_RDATA  : 0                
# ********************************************************
# 
# 
# ********************************************************
# MONITOR BLOCK | address : 262147  : 65
# PWRITE     : 1                
# PWDATA     : 2                
# PRDATA     : 0                
# PADDAR     : 2                
# EXP_RDATA  : 0                
# ********************************************************
# 
# 
# ********************************************************
# GENERATE BLOCK | address : 458755  : 65
# PWRITE     : 1                
# PWDATA     : 6                
# PRDATA     : 0                
# PADDAR     : 14                
# EXP_RDATA  : 0                
# ********************************************************
# 
# 
# ********************************************************
# REF BLOCK | address : 262147  : 65
# PWRITE     : 1                
# PWDATA     : 2                
# PRDATA     : 0                
# PADDAR     : 2                
# EXP_RDATA  : 0                
# ********************************************************
# 
# 
# ** Info: -----sucess-----
# |act_data =    0 |exp_data =    0|   65|
#    Time: 65 ns  Scope: apb_pkg.apb_scoreboard.check_data File: ../ENV/apb_scoreboard.sv Line: 106
# 1 no. of times passed
# 0 no. of times failed
# ********************************************************
# GENERATE BLOCK | address : 524291  : 95
# PWRITE     : 1                
# PWDATA     : 344                
# PRDATA     : 0                
# PADDAR     : 1                
# EXP_RDATA  : 0                
# ********************************************************
# 
# 
# ********************************************************
# MONITOR BLOCK | address : 262147  : 105
# PWRITE     : 1                
# PWDATA     : 6                
# PRDATA     : 0                
# PADDAR     : 14                
# EXP_RDATA  : 0                
# ********************************************************
# 
# 
# ********************************************************
# REF BLOCK | address : 262147  : 105
# PWRITE     : 1                
# PWDATA     : 6                
# PRDATA     : 0                
# PADDAR     : 14                
# EXP_RDATA  : 0                
# ********************************************************
# 
# 
# ** Info: -----sucess-----
# |act_data =    0 |exp_data =    0|  105|
#    Time: 105 ns  Scope: apb_pkg.apb_scoreboard.check_data File: ../ENV/apb_scoreboard.sv Line: 106
# 2 no. of times passed
# 0 no. of times failed
# ********************************************************
# GENERATE BLOCK | address : 589827  : 125
# PWRITE     : 1                
# PWDATA     : 59                
# PRDATA     : 0                
# PADDAR     : 4                
# EXP_RDATA  : 0                
# ********************************************************
# 
# 
# ********************************************************
# MONITOR BLOCK | address : 262147  : 135
# PWRITE     : 1                
# PWDATA     : 88                
# PRDATA     : 0                
# PADDAR     : 1                
# EXP_RDATA  : 0                
# ********************************************************
# 
# 
# ********************************************************
# REF BLOCK | address : 262147  : 135
# PWRITE     : 1                
# PWDATA     : 88                
# PRDATA     : 0                
# PADDAR     : 1                
# EXP_RDATA  : 0                
# ********************************************************
# 
# 
# ** Info: -----sucess-----
# |act_data =    0 |exp_data =    0|  135|
#    Time: 135 ns  Scope: apb_pkg.apb_scoreboard.check_data File: ../ENV/apb_scoreboard.sv Line: 106
# 3 no. of times passed
# 0 no. of times failed
# ********************************************************
# GENERATE BLOCK | address : 655363  : 155
# PWRITE     : 1                
# PWDATA     : 386                
# PRDATA     : 0                
# PADDAR     : 30                
# EXP_RDATA  : 0                
# ********************************************************
# 
# 
# ********************************************************
# MONITOR BLOCK | address : 262147  : 165
# PWRITE     : 1                
# PWDATA     : 59                
# PRDATA     : 0                
# PADDAR     : 4                
# EXP_RDATA  : 0                
# ********************************************************
# 
# 
# ********************************************************
# REF BLOCK | address : 262147  : 165
# PWRITE     : 1                
# PWDATA     : 59                
# PRDATA     : 0                
# PADDAR     : 4                
# EXP_RDATA  : 0                
# ********************************************************
# 
# 
# ** Info: -----sucess-----
# |act_data =    0 |exp_data =    0|  165|
#    Time: 165 ns  Scope: apb_pkg.apb_scoreboard.check_data File: ../ENV/apb_scoreboard.sv Line: 106
# 4 no. of times passed
# 0 no. of times failed
# ********************************************************
# GENERATE BLOCK | address : 720899  : 185
# PWRITE     : 1                
# PWDATA     : 112                
# PRDATA     : 0                
# PADDAR     : 22                
# EXP_RDATA  : 0                
# ********************************************************
# 
# 
# ********************************************************
# MONITOR BLOCK | address : 262147  : 195
# PWRITE     : 1                
# PWDATA     : 130                
# PRDATA     : 0                
# PADDAR     : 14                
# EXP_RDATA  : 0                
# ********************************************************
# 
# 
# ********************************************************
# REF BLOCK | address : 262147  : 195
# PWRITE     : 1                
# PWDATA     : 130                
# PRDATA     : 0                
# PADDAR     : 14                
# EXP_RDATA  : 0                
# ********************************************************
# 
# 
# ** Info: -----sucess-----
# |act_data =    0 |exp_data =    0|  195|
#    Time: 195 ns  Scope: apb_pkg.apb_scoreboard.check_data File: ../ENV/apb_scoreboard.sv Line: 106
# 5 no. of times passed
# 0 no. of times failed
# ********************************************************
# GENERATE BLOCK | address : 786435  : 215
# PWRITE     : 1                
# PWDATA     : 452                
# PRDATA     : 0                
# PADDAR     : 27                
# EXP_RDATA  : 0                
# ********************************************************
# 
# 
# ********************************************************
# MONITOR BLOCK | address : 262147  : 225
# PWRITE     : 1                
# PWDATA     : 112                
# PRDATA     : 0                
# PADDAR     : 6                
# EXP_RDATA  : 0                
# ********************************************************
# 
# 
# ********************************************************
# REF BLOCK | address : 262147  : 225
# PWRITE     : 1                
# PWDATA     : 112                
# PRDATA     : 0                
# PADDAR     : 6                
# EXP_RDATA  : 0                
# ********************************************************
# 
# 
# ** Info: -----sucess-----
# |act_data =    0 |exp_data =    0|  225|
#    Time: 225 ns  Scope: apb_pkg.apb_scoreboard.check_data File: ../ENV/apb_scoreboard.sv Line: 106
# 6 no. of times passed
# 0 no. of times failed
# ********************************************************
# GENERATE BLOCK | address : 851971  : 245
# PWRITE     : 1                
# PWDATA     : 254                
# PRDATA     : 0                
# PADDAR     : 24                
# EXP_RDATA  : 0                
# ********************************************************
# 
# 
# ********************************************************
# MONITOR BLOCK | address : 262147  : 255
# PWRITE     : 1                
# PWDATA     : 196                
# PRDATA     : 0                
# PADDAR     : 11                
# EXP_RDATA  : 0                
# ********************************************************
# 
# 
# ********************************************************
# REF BLOCK | address : 262147  : 255
# PWRITE     : 1                
# PWDATA     : 196                
# PRDATA     : 0                
# PADDAR     : 11                
# EXP_RDATA  : 0                
# ********************************************************
# 
# 
# ** Info: -----sucess-----
# |act_data =    0 |exp_data =    0|  255|
#    Time: 255 ns  Scope: apb_pkg.apb_scoreboard.check_data File: ../ENV/apb_scoreboard.sv Line: 106
# 7 no. of times passed
# 0 no. of times failed
# ********************************************************
# GENERATE BLOCK | address : 917507  : 275
# PWRITE     : 1                
# PWDATA     : 323                
# PRDATA     : 0                
# PADDAR     : 27                
# EXP_RDATA  : 0                
# ********************************************************
# 
# 
# ********************************************************
# MONITOR BLOCK | address : 262147  : 285
# PWRITE     : 1                
# PWDATA     : 254                
# PRDATA     : 0                
# PADDAR     : 8                
# EXP_RDATA  : 0                
# ********************************************************
# 
# 
# ********************************************************
# REF BLOCK | address : 262147  : 285
# PWRITE     : 1                
# PWDATA     : 254                
# PRDATA     : 0                
# PADDAR     : 8                
# EXP_RDATA  : 0                
# ********************************************************
# 
# 
# ** Info: -----sucess-----
# |act_data =    0 |exp_data =    0|  285|
#    Time: 285 ns  Scope: apb_pkg.apb_scoreboard.check_data File: ../ENV/apb_scoreboard.sv Line: 106
# 8 no. of times passed
# 0 no. of times failed
# ********************************************************
# GENERATE BLOCK | address : 983043  : 305
# PWRITE     : 1                
# PWDATA     : 88                
# PRDATA     : 0                
# PADDAR     : 18                
# EXP_RDATA  : 0                
# ********************************************************
# 
# 
# ********************************************************
# MONITOR BLOCK | address : 262147  : 315
# PWRITE     : 1                
# PWDATA     : 67                
# PRDATA     : 0                
# PADDAR     : 11                
# EXP_RDATA  : 0                
# ********************************************************
# 
# 
# ********************************************************
# REF BLOCK | address : 262147  : 315
# PWRITE     : 1                
# PWDATA     : 67                
# PRDATA     : 0                
# PADDAR     : 11                
# EXP_RDATA  : 0                
# ********************************************************
# 
# 
# ** Info: -----sucess-----
# |act_data =    0 |exp_data =    0|  315|
#    Time: 315 ns  Scope: apb_pkg.apb_scoreboard.check_data File: ../ENV/apb_scoreboard.sv Line: 106
# 9 no. of times passed
# 0 no. of times failed
# ********************************************************
# GENERATE BLOCK | address : 1048579  : 335
# PWRITE     : 1                
# PWDATA     : 274                
# PRDATA     : 0                
# PADDAR     : 23                
# EXP_RDATA  : 0                
# ********************************************************
# 
# 
# ********************************************************
# MONITOR BLOCK | address : 262147  : 345
# PWRITE     : 1                
# PWDATA     : 88                
# PRDATA     : 0                
# PADDAR     : 2                
# EXP_RDATA  : 0                
# ********************************************************
# 
# 
# ********************************************************
# REF BLOCK | address : 262147  : 345
# PWRITE     : 1                
# PWDATA     : 88                
# PRDATA     : 0                
# PADDAR     : 2                
# EXP_RDATA  : 0                
# ********************************************************
# 
# 
# ** Info: -----sucess-----
# |act_data =    0 |exp_data =    0|  345|
#    Time: 345 ns  Scope: apb_pkg.apb_scoreboard.check_data File: ../ENV/apb_scoreboard.sv Line: 106
# 10 no. of times passed
# 0 no. of times failed
# ********************************************************
# GENERATE BLOCK | address : 1114115  : 365
# PWRITE     : 1                
# PWDATA     : 482                
# PRDATA     : 0                
# PADDAR     : 2                
# EXP_RDATA  : 0                
# ********************************************************
# 
# 
# ********************************************************
# MONITOR BLOCK | address : 262147  : 375
# PWRITE     : 1                
# PWDATA     : 18                
# PRDATA     : 0                
# PADDAR     : 7                
# EXP_RDATA  : 0                
# ********************************************************
# 
# 
# ********************************************************
# REF BLOCK | address : 262147  : 375
# PWRITE     : 1                
# PWDATA     : 18                
# PRDATA     : 0                
# PADDAR     : 7                
# EXP_RDATA  : 0                
# ********************************************************
# 
# 
# ** Info: -----sucess-----
# |act_data =    0 |exp_data =    0|  375|
#    Time: 375 ns  Scope: apb_pkg.apb_scoreboard.check_data File: ../ENV/apb_scoreboard.sv Line: 106
# 11 no. of times passed
# 0 no. of times failed
# ********************************************************
# GENERATE BLOCK | address : 1179651  : 395
# PWRITE     : 1                
# PWDATA     : 380                
# PRDATA     : 0                
# PADDAR     : 2                
# EXP_RDATA  : 0                
# ********************************************************
# 
# 
# ********************************************************
# MONITOR BLOCK | address : 262147  : 405
# PWRITE     : 1                
# PWDATA     : 226                
# PRDATA     : 0                
# PADDAR     : 2                
# EXP_RDATA  : 0                
# ********************************************************
# 
# 
# ********************************************************
# REF BLOCK | address : 262147  : 405
# PWRITE     : 1                
# PWDATA     : 226                
# PRDATA     : 0                
# PADDAR     : 2                
# EXP_RDATA  : 0                
# ********************************************************
# 
# 
# ** Info: -----sucess-----
# |act_data =    0 |exp_data =    0|  405|
#    Time: 405 ns  Scope: apb_pkg.apb_scoreboard.check_data File: ../ENV/apb_scoreboard.sv Line: 106
# 12 no. of times passed
# 0 no. of times failed
# ********************************************************
# GENERATE BLOCK | address : 1245187  : 425
# PWRITE     : 1                
# PWDATA     : 143                
# PRDATA     : 0                
# PADDAR     : 31                
# EXP_RDATA  : 0                
# ********************************************************
# 
# 
# ********************************************************
# MONITOR BLOCK | address : 262147  : 435
# PWRITE     : 1                
# PWDATA     : 124                
# PRDATA     : 0                
# PADDAR     : 2                
# EXP_RDATA  : 0                
# ********************************************************
# 
# 
# ********************************************************
# REF BLOCK | address : 262147  : 435
# PWRITE     : 1                
# PWDATA     : 124                
# PRDATA     : 0                
# PADDAR     : 2                
# EXP_RDATA  : 0                
# ********************************************************
# 
# 
# ** Info: -----sucess-----
# |act_data =    0 |exp_data =    0|  435|
#    Time: 435 ns  Scope: apb_pkg.apb_scoreboard.check_data File: ../ENV/apb_scoreboard.sv Line: 106
# 13 no. of times passed
# 0 no. of times failed
# ********************************************************
# GENERATE BLOCK | address : 1310723  : 455
# PWRITE     : 1                
# PWDATA     : 142                
# PRDATA     : 0                
# PADDAR     : 3                
# EXP_RDATA  : 0                
# ********************************************************
# 
# 
# ********************************************************
# MONITOR BLOCK | address : 262147  : 465
# PWRITE     : 1                
# PWDATA     : 143                
# PRDATA     : 0                
# PADDAR     : 15                
# EXP_RDATA  : 0                
# ********************************************************
# 
# 
# ********************************************************
# REF BLOCK | address : 262147  : 465
# PWRITE     : 1                
# PWDATA     : 143                
# PRDATA     : 0                
# PADDAR     : 15                
# EXP_RDATA  : 0                
# ********************************************************
# 
# 
# ** Info: -----sucess-----
# |act_data =    0 |exp_data =    0|  465|
#    Time: 465 ns  Scope: apb_pkg.apb_scoreboard.check_data File: ../ENV/apb_scoreboard.sv Line: 106
# 14 no. of times passed
# 0 no. of times failed
# ********************************************************
# GENERATE BLOCK | address : 1376259  : 485
# PWRITE     : 0                
# PWDATA     : 0                
# PRDATA     : 0                
# PADDAR     : 9                
# EXP_RDATA  : 0                
# ********************************************************
# 
# 
# ********************************************************
# MONITOR BLOCK | address : 262147  : 495
# PWRITE     : 1                
# PWDATA     : 142                
# PRDATA     : 0                
# PADDAR     : 3                
# EXP_RDATA  : 0                
# ********************************************************
# 
# 
# ********************************************************
# REF BLOCK | address : 262147  : 495
# PWRITE     : 1                
# PWDATA     : 142                
# PRDATA     : 0                
# PADDAR     : 3                
# EXP_RDATA  : 0                
# ********************************************************
# 
# 
# ** Info: -----sucess-----
# |act_data =    0 |exp_data =    0|  495|
#    Time: 495 ns  Scope: apb_pkg.apb_scoreboard.check_data File: ../ENV/apb_scoreboard.sv Line: 106
# 15 no. of times passed
# 0 no. of times failed
# ********************************************************
# GENERATE BLOCK | address : 1441795  : 515
# PWRITE     : 0                
# PWDATA     : 0                
# PRDATA     : 0                
# PADDAR     : 29                
# EXP_RDATA  : 0                
# ********************************************************
# 
# 
# ********************************************************
# MONITOR BLOCK | address : 262147  : 525
# PWRITE     : 0                
# PWDATA     : 142                
# PRDATA     : 0                
# PADDAR     : 9                
# EXP_RDATA  : 0                
# ********************************************************
# 
# 
# ********************************************************
# REF BLOCK | address : 262147  : 525
# PWRITE     : 0                
# PWDATA     : 142                
# PRDATA     : 0                
# PADDAR     : 9                
# EXP_RDATA  : 0                
# ********************************************************
# 
# 
# ** Info: -----sucess-----
# |act_data =    0 |exp_data =    0|  525|
#    Time: 525 ns  Scope: apb_pkg.apb_scoreboard.check_data File: ../ENV/apb_scoreboard.sv Line: 106
# 16 no. of times passed
# 0 no. of times failed
# ********************************************************
# GENERATE BLOCK | address : 1507331  : 545
# PWRITE     : 0                
# PWDATA     : 0                
# PRDATA     : 0                
# PADDAR     : 5                
# EXP_RDATA  : 0                
# ********************************************************
# 
# 
# ********************************************************
# MONITOR BLOCK | address : 262147  : 555
# PWRITE     : 0                
# PWDATA     : 142                
# PRDATA     : 0                
# PADDAR     : 13                
# EXP_RDATA  : 0                
# ********************************************************
# 
# 
# ********************************************************
# REF BLOCK | address : 262147  : 555
# PWRITE     : 0                
# PWDATA     : 142                
# PRDATA     : 0                
# PADDAR     : 13                
# EXP_RDATA  : 0                
# ********************************************************
# 
# 
# ** Info: -----sucess-----
# |act_data =    0 |exp_data =    0|  555|
#    Time: 555 ns  Scope: apb_pkg.apb_scoreboard.check_data File: ../ENV/apb_scoreboard.sv Line: 106
# 17 no. of times passed
# 0 no. of times failed
# ********************************************************
# GENERATE BLOCK | address : 1572867  : 575
# PWRITE     : 0                
# PWDATA     : 0                
# PRDATA     : 0                
# PADDAR     : 16                
# EXP_RDATA  : 0                
# ********************************************************
# 
# 
# ********************************************************
# MONITOR BLOCK | address : 262147  : 585
# PWRITE     : 0                
# PWDATA     : 142                
# PRDATA     : 0                
# PADDAR     : 5                
# EXP_RDATA  : 0                
# ********************************************************
# 
# 
# ********************************************************
# REF BLOCK | address : 262147  : 585
# PWRITE     : 0                
# PWDATA     : 142                
# PRDATA     : 0                
# PADDAR     : 5                
# EXP_RDATA  : 0                
# ********************************************************
# 
# 
# ** Info: -----sucess-----
# |act_data =    0 |exp_data =    0|  585|
#    Time: 585 ns  Scope: apb_pkg.apb_scoreboard.check_data File: ../ENV/apb_scoreboard.sv Line: 106
# 18 no. of times passed
# 0 no. of times failed
# ********************************************************
# GENERATE BLOCK | address : 1638403  : 605
# PWRITE     : 0                
# PWDATA     : 0                
# PRDATA     : 0                
# PADDAR     : 2                
# EXP_RDATA  : 0                
# ********************************************************
# 
# 
# ********************************************************
# MONITOR BLOCK | address : 262147  : 615
# PWRITE     : 0                
# PWDATA     : 142                
# PRDATA     : 0                
# PADDAR     : 0                
# EXP_RDATA  : 0                
# ********************************************************
# 
# 
# ********************************************************
# REF BLOCK | address : 262147  : 615
# PWRITE     : 0                
# PWDATA     : 142                
# PRDATA     : 0                
# PADDAR     : 0                
# EXP_RDATA  : 0                
# ********************************************************
# 
# 
# ** Info: -----sucess-----
# |act_data =    0 |exp_data =    0|  615|
#    Time: 615 ns  Scope: apb_pkg.apb_scoreboard.check_data File: ../ENV/apb_scoreboard.sv Line: 106
# 19 no. of times passed
# 0 no. of times failed
# ********************************************************
# GENERATE BLOCK | address : 1703939  : 635
# PWRITE     : 0                
# PWDATA     : 0                
# PRDATA     : 0                
# PADDAR     : 5                
# EXP_RDATA  : 0                
# ********************************************************
# 
# 
# ********************************************************
# MONITOR BLOCK | address : 262147  : 645
# PWRITE     : 0                
# PWDATA     : 142                
# PRDATA     : 0                
# PADDAR     : 2                
# EXP_RDATA  : 0                
# ********************************************************
# 
# 
# ********************************************************
# REF BLOCK | address : 262147  : 645
# PWRITE     : 0                
# PWDATA     : 142                
# PRDATA     : 0                
# PADDAR     : 2                
# EXP_RDATA  : 124                
# ********************************************************
# 
# 
# ** Info: -----sucess-----
# |act_data =    0 |exp_data =    0|  645|
#    Time: 645 ns  Scope: apb_pkg.apb_scoreboard.check_data File: ../ENV/apb_scoreboard.sv Line: 106
# 20 no. of times passed
# 0 no. of times failed
# ********************************************************
# GENERATE BLOCK | address : 1769475  : 665
# PWRITE     : 0                
# PWDATA     : 0                
# PRDATA     : 0                
# PADDAR     : 18                
# EXP_RDATA  : 0                
# ********************************************************
# 
# 
# ********************************************************
# MONITOR BLOCK | address : 262147  : 675
# PWRITE     : 0                
# PWDATA     : 142                
# PRDATA     : 124                
# PADDAR     : 5                
# EXP_RDATA  : 124                
# ********************************************************
# 
# 
# ********************************************************
# REF BLOCK | address : 262147  : 675
# PWRITE     : 0                
# PWDATA     : 142                
# PRDATA     : 124                
# PADDAR     : 5                
# EXP_RDATA  : 0                
# ********************************************************
# 
# 
# ** Info: -----sucess-----
# |act_data =  124 |exp_data =  124|  675|
#    Time: 675 ns  Scope: apb_pkg.apb_scoreboard.check_data File: ../ENV/apb_scoreboard.sv Line: 106
# 21 no. of times passed
# 0 no. of times failed
# ********************************************************
# GENERATE BLOCK | address : 1835011  : 695
# PWRITE     : 0                
# PWDATA     : 0                
# PRDATA     : 0                
# PADDAR     : 2                
# EXP_RDATA  : 0                
# ********************************************************
# 
# 
# ********************************************************
# MONITOR BLOCK | address : 262147  : 705
# PWRITE     : 0                
# PWDATA     : 142                
# PRDATA     : 0                
# PADDAR     : 2                
# EXP_RDATA  : 0                
# ********************************************************
# 
# 
# ********************************************************
# REF BLOCK | address : 262147  : 705
# PWRITE     : 0                
# PWDATA     : 142                
# PRDATA     : 0                
# PADDAR     : 2                
# EXP_RDATA  : 124                
# ********************************************************
# 
# 
# ** Info: -----sucess-----
# |act_data =    0 |exp_data =    0|  705|
#    Time: 705 ns  Scope: apb_pkg.apb_scoreboard.check_data File: ../ENV/apb_scoreboard.sv Line: 106
# 22 no. of times passed
# 0 no. of times failed
# ********************************************************
# GENERATE BLOCK | address : 1900547  : 725
# PWRITE     : 0                
# PWDATA     : 0                
# PRDATA     : 0                
# PADDAR     : 5                
# EXP_RDATA  : 0                
# ********************************************************
# 
# 
# ********************************************************
# MONITOR BLOCK | address : 262147  : 735
# PWRITE     : 0                
# PWDATA     : 142                
# PRDATA     : 124                
# PADDAR     : 2                
# EXP_RDATA  : 124                
# ********************************************************
# 
# 
# ********************************************************
# REF BLOCK | address : 262147  : 735
# PWRITE     : 0                
# PWDATA     : 142                
# PRDATA     : 124                
# PADDAR     : 2                
# EXP_RDATA  : 124                
# ********************************************************
# 
# 
# ** Info: -----sucess-----
# |act_data =  124 |exp_data =  124|  735|
#    Time: 735 ns  Scope: apb_pkg.apb_scoreboard.check_data File: ../ENV/apb_scoreboard.sv Line: 106
# 23 no. of times passed
# 0 no. of times failed
# ********************************************************
# GENERATE BLOCK | address : 1966083  : 755
# PWRITE     : 0                
# PWDATA     : 0                
# PRDATA     : 0                
# PADDAR     : 15                
# EXP_RDATA  : 0                
# ********************************************************
# 
# 
# ********************************************************
# MONITOR BLOCK | address : 262147  : 765
